
T2BC0 000:118 SEGGER J-Link V6.12c Log File (0001ms, 0031ms total)
T2BC0 000:118 DLL Compiled: Dec 16 2016 17:24:18 (0001ms, 0031ms total)
T2BC0 000:118 Logging started @ 2019-04-14 11:42 (0001ms, 0031ms total)
T2BC0 000:119 JLINK_SetWarnOutHandler(...) (0000ms, 0031ms total)
T2BC0 000:119 JLINK_OpenEx(...)
Firmware: J-Link ARM-OB STM32 compiled Aug 22 2012 19:52:04
Hardware: V7.00
S/N: 20090928
Feature(s): RDI,FlashDL,FlashBP,JFlash,GDBFullWEBSRV Webserver running on local port 19080 (0019ms, 0050ms total)
T2BC0 000:119   returns O.K. (0019ms, 0050ms total)
T2BC0 000:138 JLINK_SetErrorOutHandler(...) (0000ms, 0050ms total)
T2BC0 000:138 JLINK_ExecCommand("ProjectFile = "C:\Users\12566\Desktop\STM32F103\HMC472A_CTR\MDK-ARM\JLinkSettings.ini"", ...).   returns 0x00 (0153ms, 0203ms total)
T2BC0 000:291 JLINK_ExecCommand("Device = STM32F103C8", ...). Device "STM32F103C8" selected.  returns 0x00 (0002ms, 0205ms total)
T2BC0 000:293 JLINK_ExecCommand("DisableConnectionTimeout", ...).   returns 0x01 (0000ms, 0205ms total)
T2BC0 000:293 JLINK_GetHardwareVersion()  returns 0x11170 (0000ms, 0205ms total)
T2BC0 000:293 JLINK_GetDLLVersion()  returns 61203 (0000ms, 0205ms total)
T2BC0 000:293 JLINK_GetFirmwareString(...) (0000ms, 0205ms total)
T2BC0 000:293 JLINK_GetDLLVersion()  returns 61203 (0000ms, 0205ms total)
T2BC0 000:293 JLINK_GetCompileDateTime() (0000ms, 0205ms total)
T2BC0 000:293 JLINK_GetFirmwareString(...) (0000ms, 0205ms total)
T2BC0 000:293 JLINK_GetHardwareVersion()  returns 0x11170 (0000ms, 0205ms total)
T2BC0 000:293 JLINK_TIF_Select(JLINKARM_TIF_SWD)  returns 0x00 (0003ms, 0208ms total)
T2BC0 000:296 JLINK_SetSpeed(5000) (0000ms, 0208ms total)
T2BC0 000:296 JLINK_GetId() >0x108 TIF>Found SWD-DP with ID 0x1BA01477 >0x0D TIF> >0x28 TIF> >0x0D TIF> >0x28 TIF> >0x0D TIF> >0x28 TIF> >0x0D TIF> >0x28 TIF> >0x0D TIF> >0x21 TIF> >0x0D TIF> >0x28 TIF> >0x0D TIF> >0x28 TIF> >0x0D TIF> >0x28 TIF> >0x0D TIF> >0x21 TIF> >0x0D TIF> >0x21 TIF> >0x0D TIF> >0x28 TIF> >0x0D TIF> >0x21 TIF> >0x0D TIF> >0x21 TIF> >0x0D TIF> >0x28 TIF> >0x0D TIF> >0x21 TIF> >0x0D TIF> >0x21 TIF> >0x0D TIF> >0x28 TIF> >0x0D TIF> >0x21 TIF> >0x0D TIF> >0x21 TIF> >0x0D TIF>
 >0x28 TIF> >0x0D TIF> >0x21 TIF> >0x0D TIF> >0x21 TIF> >0x0D TIF> >0x28 TIF> >0x0D TIF> >0x21 TIF> >0x0D TIF> >0x21 TIF> >0x0D TIF> >0x28 TIF> >0x0D TIF> >0x21 TIF> >0x0D TIF> >0x21 TIF> >0x108 TIF>Found SWD-DP with ID 0x1BA01477 >0x0D TIF> >0x28 TIF> >0x0D TIF> >0x28 TIF> >0x0D TIF> >0x28 TIF> >0x0D TIF> >0x28 TIF> >0x0D TIF> >0x21 TIF> >0x0D TIF> >0x28 TIF> >0x0D TIF> >0x28 TIF> >0x0D TIF> >0x21 TIF> >0x0D TIF> >0x21 TIF> >0x0D TIF> >0x21 TIF>AP-IDR: 0x14770011, Type: AHB-AP
AHB-AP ROM: 0xE00FF000 (Base addr. of first ROM table) >0x0D TIF> >0x28 TIF> >0x0D TIF> >0x28 TIF> >0x0D TIF> >0x28 TIF> >0x0D TIF> >0x21 TIF> >0x0D TIF> >0x21 TIF> >0x0D TIF> >0x28 TIF> >0x0D TIF> >0x21 TIF> >0x0D TIF> >0x21 TIF>Found Cortex-M3 r1p1, Little endian. -- CPU_ReadMem(4 bytes @ 0xE000EDF0) -- CPU_ReadMem(4 bytes @ 0xE0002000)FPUnit: 6 code (BP) slots and 2 literal slots -- CPU_ReadMem(4 bytes @ 0xE000EDFC) -- CPU_ReadMem(4 bytes @ 0xE0001000) -- CPU_WriteMem(4 bytes @ 0xE0001000)
 -- CPU_ReadMem(4 bytes @ 0xE000ED88) -- CPU_WriteMem(4 bytes @ 0xE000ED88) -- CPU_ReadMem(4 bytes @ 0xE000ED88) -- CPU_WriteMem(4 bytes @ 0xE000ED88)CoreSight components:ROMTbl 0 @ E00FF000 -- CPU_ReadMem(16 bytes @ 0xE00FF000) -- CPU_ReadMem(16 bytes @ 0xE000EFF0) -- CPU_ReadMem(16 bytes @ 0xE000EFE0)ROMTbl 0 [0]: FFF0F000, CID: B105E00D, PID: 001BB000 SCS -- CPU_ReadMem(16 bytes @ 0xE0001FF0) -- CPU_ReadMem(16 bytes @ 0xE0001FE0)ROMTbl 0 [1]: FFF02000, CID: B105E00D, PID: 001BB002 DWT
 -- CPU_ReadMem(16 bytes @ 0xE0002FF0) -- CPU_ReadMem(16 bytes @ 0xE0002FE0)ROMTbl 0 [2]: FFF03000, CID: B105E00D, PID: 000BB003 FPB -- CPU_ReadMem(16 bytes @ 0xE0000FF0) -- CPU_ReadMem(16 bytes @ 0xE0000FE0)ROMTbl 0 [3]: FFF01000, CID: B105E00D, PID: 001BB001 ITM -- CPU_ReadMem(16 bytes @ 0xE00FF010) -- CPU_ReadMem(16 bytes @ 0xE0040FF0) -- CPU_ReadMem(16 bytes @ 0xE0040FE0)ROMTbl 0 [4]: FFF41000, CID: B105900D, PID: 001BB923 TPIU-Lite >0x0D TIF> >0x21 TIF>  returns 0x1BA01477 (0093ms, 0301ms total)
T2BC0 000:389 JLINK_GetDLLVersion()  returns 61203 (0000ms, 0301ms total)
T2BC0 000:389 JLINK_CORE_GetFound()  returns 0x30000FF (0000ms, 0301ms total)
T2BC0 000:389 JLINK_GetDebugInfo(0x100) -- Value=0xE00FF000  returns 0x00 (0000ms, 0301ms total)
T2BC0 000:389 JLINK_ReadMem (0xE00FF000, 0x0020 Bytes, ...) -- CPU is running -- CPU_ReadMem(32 bytes @ 0xE00FF000) - Data: 03 F0 F0 FF 03 20 F0 FF 03 30 F0 FF 03 10 F0 FF ...  returns 0x00 (0002ms, 0303ms total)
T2BC0 000:391 JLINK_ReadMem (0xE000EFF0, 0x0010 Bytes, ...) -- CPU is running -- CPU_ReadMem(16 bytes @ 0xE000EFF0) - Data: 0D 00 00 00 E0 00 00 00 05 00 00 00 B1 00 00 00  returns 0x00 (0001ms, 0304ms total)
T2BC0 000:392 JLINK_ReadMem (0xE000EFD0, 0x0020 Bytes, ...) -- CPU is running -- CPU_ReadMem(32 bytes @ 0xE000EFD0) - Data: 04 00 00 00 00 00 00 00 00 00 00 00 00 00 00 00 ...  returns 0x00 (0001ms, 0305ms total)
T2BC0 000:393 JLINK_ReadMem (0xE0001FF0, 0x0010 Bytes, ...) -- CPU is running -- CPU_ReadMem(16 bytes @ 0xE0001FF0) - Data: 0D 00 00 00 E0 00 00 00 05 00 00 00 B1 00 00 00  returns 0x00 (0001ms, 0306ms total)
T2BC0 000:394 JLINK_ReadMem (0xE0001FD0, 0x0020 Bytes, ...) -- CPU is running -- CPU_ReadMem(32 bytes @ 0xE0001FD0) - Data: 04 00 00 00 00 00 00 00 00 00 00 00 00 00 00 00 ...  returns 0x00 (0002ms, 0308ms total)
T2BC0 000:396 JLINK_ReadMem (0xE0002FF0, 0x0010 Bytes, ...) -- CPU is running -- CPU_ReadMem(16 bytes @ 0xE0002FF0) - Data: 0D 00 00 00 E0 00 00 00 05 00 00 00 B1 00 00 00  returns 0x00 (0001ms, 0309ms total)
T2BC0 000:397 JLINK_ReadMem (0xE0002FD0, 0x0020 Bytes, ...) -- CPU is running -- CPU_ReadMem(32 bytes @ 0xE0002FD0) - Data: 04 00 00 00 00 00 00 00 00 00 00 00 00 00 00 00 ...  returns 0x00 (0001ms, 0310ms total)
T2BC0 000:398 JLINK_ReadMem (0xE0000FF0, 0x0010 Bytes, ...) -- CPU is running -- CPU_ReadMem(16 bytes @ 0xE0000FF0) - Data: 0D 00 00 00 E0 00 00 00 05 00 00 00 B1 00 00 00  returns 0x00 (0001ms, 0311ms total)
T2BC0 000:399 JLINK_ReadMem (0xE0000FD0, 0x0020 Bytes, ...) -- CPU is running -- CPU_ReadMem(32 bytes @ 0xE0000FD0) - Data: 04 00 00 00 00 00 00 00 00 00 00 00 00 00 00 00 ...  returns 0x00 (0001ms, 0312ms total)
T2BC0 000:400 JLINK_ReadMem (0xE0040FF0, 0x0010 Bytes, ...) -- CPU is running -- CPU_ReadMem(16 bytes @ 0xE0040FF0) - Data: 0D 00 00 00 90 00 00 00 05 00 00 00 B1 00 00 00  returns 0x00 (0001ms, 0313ms total)
T2BC0 000:401 JLINK_ReadMem (0xE0040FD0, 0x0020 Bytes, ...) -- CPU is running -- CPU_ReadMem(32 bytes @ 0xE0040FD0) - Data: 04 00 00 00 00 00 00 00 00 00 00 00 00 00 00 00 ...  returns 0x00 (0002ms, 0315ms total)
T2BC0 000:403 JLINK_ReadMemU32(0xE000ED00, 0x0001 Items, ...) -- CPU is running -- CPU_ReadMem(4 bytes @ 0xE000ED00) - Data: 31 C2 1F 41  returns 0x01 (0001ms, 0316ms total)
T2BC0 000:404 JLINK_SetResetType(JLINKARM_CM3_RESET_TYPE_NORMAL)  returns JLINKARM_CM3_RESET_TYPE_NORMAL (0000ms, 0316ms total)
T2BC0 000:404 JLINK_Reset() -- CPU is running -- CPU_WriteMem(4 bytes @ 0xE000EDF0) -- CPU is running -- CPU_WriteMem(4 bytes @ 0xE000EDFC) >0x35 TIF> -- CPU is running -- CPU_WriteMem(4 bytes @ 0xE000ED0C) -- CPU is running -- CPU_ReadMem(4 bytes @ 0xE000EDF0) -- CPU is running -- CPU_ReadMem(4 bytes @ 0xE000EDF0) -- CPU is running -- CPU_WriteMem(4 bytes @ 0xE000EDF0) -- CPU is running -- CPU_WriteMem(4 bytes @ 0xE000EDFC) -- CPU is running -- CPU_ReadMem(4 bytes @ 0xE000EDF0)
 -- CPU_WriteMem(4 bytes @ 0xE0002000) -- CPU_ReadMem(4 bytes @ 0xE000EDFC) -- CPU_ReadMem(4 bytes @ 0xE0001000) (0024ms, 0340ms total)
T2BC0 000:428 JLINK_ReadReg(R15 (PC))  returns 0x08000100 (0000ms, 0340ms total)
T2BC0 000:428 JLINK_ReadReg(XPSR)  returns 0x01000000 (0000ms, 0340ms total)
T2BC0 000:428 JLINK_Halt()  returns 0x00 (0000ms, 0340ms total)
T2BC0 000:428 JLINK_IsHalted()  returns TRUE (0000ms, 0340ms total)
T2BC0 000:428 JLINK_ReadMemU32(0xE000EDF0, 0x0001 Items, ...) -- CPU_ReadMem(4 bytes @ 0xE000EDF0) - Data: 03 00 03 00  returns 0x01 (0001ms, 0341ms total)
T2BC0 000:429 JLINK_WriteU32(0xE000EDF0, 0xA05F0003) -- CPU_WriteMem(4 bytes @ 0xE000EDF0)  returns 0x00 (0001ms, 0342ms total)
T2BC0 000:430 JLINK_WriteU32(0xE000EDFC, 0x01000000) -- CPU_WriteMem(4 bytes @ 0xE000EDFC)  returns 0x00 (0002ms, 0344ms total)
T2BC0 000:432 JLINK_GetHWStatus(...)  returns 0x00 (0000ms, 0344ms total)
T2BC0 000:432 JLINK_GetNumBPUnits(Type = 0xFFFFFF00)  returns 0x06 (0001ms, 0345ms total)
T2BC0 000:433 JLINK_GetNumBPUnits(Type = 0xF0)  returns 0x2000 (0000ms, 0345ms total)
T2BC0 000:433 JLINK_GetNumWPUnits()  returns 0x04 (0000ms, 0345ms total)
T2BC0 000:433 JLINK_GetSpeed()  returns 0xFA0 (0000ms, 0345ms total)
T2BC0 000:433 JLINK_ReadMemU32(0xE000E004, 0x0001 Items, ...) -- CPU_ReadMem(4 bytes @ 0xE000E004) - Data: 01 00 00 00  returns 0x01 (0000ms, 0345ms total)
T2BC0 000:433 JLINK_ReadMemU32(0xE000E004, 0x0001 Items, ...) -- CPU_ReadMem(4 bytes @ 0xE000E004) - Data: 01 00 00 00  returns 0x01 (0002ms, 0347ms total)
T2BC0 000:435 JLINK_WriteMem(0xE0001000, 0x001C Bytes, ...) - Data: 01 00 00 00 00 00 00 00 00 00 00 00 00 00 00 00 ... -- CPU_WriteMem(28 bytes @ 0xE0001000)  returns 0x1C (0002ms, 0349ms total)
T2BC0 000:437 JLINK_ReadMem (0xE0001000, 0x001C Bytes, ...) -- CPU_ReadMem(28 bytes @ 0xE0001000) - Data: 01 00 00 40 00 00 00 00 00 00 00 00 00 00 00 00 ...  returns 0x00 (0001ms, 0350ms total)
T2BC0 000:438 JLINK_ReadReg(R15 (PC))  returns 0x08000100 (0000ms, 0350ms total)
T2BC0 000:438 JLINK_ReadReg(XPSR)  returns 0x01000000 (0000ms, 0350ms total)
T2BC0 000:464 JLINK_ReadMem (0xE0001004, 0x0004 Bytes, ...) - Data: 00 00 00 00  returns 0x00 (0000ms, 0350ms total)
T2BC0 000:555 JLINK_SetResetType(JLINKARM_CM3_RESET_TYPE_NORMAL)  returns JLINKARM_CM3_RESET_TYPE_NORMAL (0000ms, 0350ms total)
T2BC0 000:555 JLINK_Reset() -- CPU_WriteMem(4 bytes @ 0xE000EDF0) -- CPU_WriteMem(4 bytes @ 0xE000EDFC) >0x35 TIF> -- CPU_WriteMem(4 bytes @ 0xE000ED0C) -- CPU_ReadMem(4 bytes @ 0xE000EDF0) -- CPU_ReadMem(4 bytes @ 0xE000EDF0) -- CPU_WriteMem(4 bytes @ 0xE000EDF0) -- CPU_WriteMem(4 bytes @ 0xE000EDFC) -- CPU is running -- CPU_ReadMem(4 bytes @ 0xE000EDF0) -- CPU_WriteMem(4 bytes @ 0xE0002000) -- CPU_ReadMem(4 bytes @ 0xE000EDFC) -- CPU_ReadMem(4 bytes @ 0xE0001000) (0023ms, 0373ms total)
T2BC0 000:578 JLINK_ReadReg(R15 (PC))  returns 0x08000100 (0000ms, 0373ms total)
T2BC0 000:578 JLINK_ReadReg(XPSR)  returns 0x01000000 (0000ms, 0373ms total)
T2BC0 001:160 JLINK_ReadMem (0x08000100, 0x003C Bytes, ...) -- CPU_ReadMem(64 bytes @ 0x08000100) -- Updating C cache (64 bytes @ 0x08000100) -- Read from C cache (60 bytes @ 0x08000100) - Data: 06 48 80 47 06 48 00 47 FE E7 FE E7 FE E7 FE E7 ...  returns 0x00 (0002ms, 0375ms total)
T2BC0 001:336 JLINK_ReadMem (0x40010C00, 0x000C Bytes, ...) -- CPU_ReadMem(12 bytes @ 0x40010C00) - Data: 44 44 48 44 44 44 44 44 00 00 00 00  returns 0x00 (0001ms, 0376ms total)
T2BC0 001:337 JLINK_ReadMem (0x40010C0C, 0x0004 Bytes, ...) -- CPU_ReadMem(4 bytes @ 0x40010C0C) - Data: 10 00 00 00  returns 0x00 (0001ms, 0377ms total)
T2BC0 001:338 JLINK_ReadMem (0x40010C18, 0x0004 Bytes, ...) -- CPU_ReadMem(4 bytes @ 0x40010C18) - Data: 00 00 00 00  returns 0x00 (0001ms, 0378ms total)
T177C 005:702 JLINK_SetBPEx(Addr = 0x08002454, Type = 0xFFFFFFF2)  returns 0x00000001 (0000ms, 0378ms total)
T177C 005:702 JLINK_SetBPEx(Addr = 0x08002472, Type = 0xFFFFFFF2)  returns 0x00000002 (0000ms, 0378ms total)
T177C 005:702 JLINK_Go() -- CPU_WriteMem(4 bytes @ 0xE0002000) -- CPU_WriteMem(4 bytes @ 0xE0002000) -- CPU_ReadMem(4 bytes @ 0xE0001000) -- CPU_WriteMem(4 bytes @ 0xE0002008) -- CPU_WriteMem(4 bytes @ 0xE000200C) -- CPU_WriteMem(4 bytes @ 0xE0002010) -- CPU_WriteMem(4 bytes @ 0xE0002014) -- CPU_WriteMem(4 bytes @ 0xE0002018) -- CPU_WriteMem(4 bytes @ 0xE000201C) -- CPU_WriteMem(4 bytes @ 0xE0001004) (0009ms, 0387ms total)
T177C 005:812 JLINK_IsHalted()  returns TRUE (0004ms, 0391ms total)
T177C 005:816 JLINK_Halt()  returns 0x00 (0000ms, 0387ms total)
T177C 005:816 JLINK_IsHalted()  returns TRUE (0000ms, 0387ms total)
T177C 005:816 JLINK_IsHalted()  returns TRUE (0000ms, 0387ms total)
T177C 005:816 JLINK_IsHalted()  returns TRUE (0000ms, 0387ms total)
T177C 005:816 JLINK_ReadReg(R15 (PC))  returns 0x08002454 (0000ms, 0387ms total)
T177C 005:816 JLINK_ReadReg(XPSR)  returns 0x61000000 (0000ms, 0387ms total)
T177C 005:816 JLINK_ClrBPEx(BPHandle = 0x00000001)  returns 0x00 (0000ms, 0387ms total)
T177C 005:816 JLINK_ClrBPEx(BPHandle = 0x00000002)  returns 0x00 (0000ms, 0387ms total)
T177C 005:816 JLINK_ReadMemU32(0xE000ED30, 0x0001 Items, ...) -- CPU_ReadMem(4 bytes @ 0xE000ED30) - Data: 03 00 00 00  returns 0x01 (0001ms, 0388ms total)
T177C 005:817 JLINK_ReadMemU32(0xE0001028, 0x0001 Items, ...) -- CPU_ReadMem(4 bytes @ 0xE0001028) - Data: 00 00 00 00  returns 0x01 (0001ms, 0389ms total)
T177C 005:818 JLINK_ReadMemU32(0xE0001038, 0x0001 Items, ...) -- CPU_ReadMem(4 bytes @ 0xE0001038) - Data: 00 02 00 00  returns 0x01 (0001ms, 0390ms total)
T177C 005:819 JLINK_ReadMemU32(0xE0001048, 0x0001 Items, ...) -- CPU_ReadMem(4 bytes @ 0xE0001048) - Data: 00 00 00 00  returns 0x01 (0002ms, 0392ms total)
T177C 005:821 JLINK_ReadMemU32(0xE0001058, 0x0001 Items, ...) -- CPU_ReadMem(4 bytes @ 0xE0001058) - Data: 00 00 00 00  returns 0x01 (0001ms, 0393ms total)
T177C 005:822 JLINK_ReadReg(R0)  returns 0x08002455 (0000ms, 0393ms total)
T177C 005:822 JLINK_ReadReg(R1)  returns 0x20000858 (0000ms, 0393ms total)
T177C 005:822 JLINK_ReadReg(R2)  returns 0x00000000 (0000ms, 0393ms total)
T177C 005:822 JLINK_ReadReg(R3)  returns 0x08001A85 (0000ms, 0393ms total)
T177C 005:822 JLINK_ReadReg(R4)  returns 0x08002D98 (0000ms, 0393ms total)
T177C 005:822 JLINK_ReadReg(R5)  returns 0x08002D98 (0000ms, 0393ms total)
T177C 005:823 JLINK_ReadReg(R6)  returns 0x00000000 (0000ms, 0394ms total)
T177C 005:823 JLINK_ReadReg(R7)  returns 0x00000000 (0000ms, 0394ms total)
T177C 005:823 JLINK_ReadReg(R8)  returns 0x00000000 (0000ms, 0394ms total)
T177C 005:823 JLINK_ReadReg(R9)  returns 0x20000160 (0000ms, 0394ms total)
T177C 005:823 JLINK_ReadReg(R10)  returns 0x00000000 (0000ms, 0394ms total)
T177C 005:823 JLINK_ReadReg(R11)  returns 0x00000000 (0000ms, 0394ms total)
T177C 005:823 JLINK_ReadReg(R12)  returns 0x888444B4 (0000ms, 0394ms total)
T177C 005:823 JLINK_ReadReg(R13 (SP))  returns 0x20000858 (0000ms, 0394ms total)
T177C 005:823 JLINK_ReadReg(R14)  returns 0x08000709 (0000ms, 0394ms total)
T177C 005:823 JLINK_ReadReg(R15 (PC))  returns 0x08002454 (0000ms, 0394ms total)
T177C 005:823 JLINK_ReadReg(XPSR)  returns 0x61000000 (0000ms, 0394ms total)
T177C 005:823 JLINK_ReadReg(MSP)  returns 0x20000858 (0000ms, 0394ms total)
T177C 005:823 JLINK_ReadReg(PSP)  returns 0x20001000 (0000ms, 0394ms total)
T177C 005:823 JLINK_ReadReg(CFBP)  returns 0x00000000 (0000ms, 0394ms total)
T2BC0 005:848 JLINK_ReadMem (0x00000000, 0x0001 Bytes, ...) -- CPU_ReadMem(4 bytes @ 0x00000004) -- CPU_ReadMem(64 bytes @ 0x08000000) -- Updating C cache (64 bytes @ 0x08000000) -- Read from C cache (1 bytes @ 0x08000000) - Data: 58  returns 0x00 (0003ms, 0397ms total)
T2BC0 005:851 JLINK_ReadMem (0x00000000, 0x0004 Bytes, ...) -- Read from C cache (4 bytes @ 0x08000000) - Data: 58 08 00 20  returns 0x00 (0001ms, 0398ms total)
T2BC0 005:852 JLINK_ReadMem (0x2000084C, 0x0004 Bytes, ...) -- CPU_ReadMem(64 bytes @ 0x20000840) -- Updating C cache (64 bytes @ 0x20000840) -- Read from C cache (4 bytes @ 0x2000084C) - Data: 00 00 00 00  returns 0x00 (0002ms, 0400ms total)
T2BC0 005:858 JLINK_ReadMemU32(0xE0001004, 0x0001 Items, ...) -- CPU_ReadMem(4 bytes @ 0xE0001004) - Data: E1 29 00 00  returns 0x01 (0000ms, 0400ms total)
T2BC0 005:886 JLINK_ReadMem (0x40010C00, 0x000C Bytes, ...) -- CPU_ReadMem(12 bytes @ 0x40010C00) - Data: 44 44 48 44 44 44 44 44 00 00 00 00  returns 0x00 (0001ms, 0402ms total)
T2BC0 005:887 JLINK_ReadMem (0x40010C0C, 0x0004 Bytes, ...) -- CPU_ReadMem(4 bytes @ 0x40010C0C) - Data: 10 00 00 00  returns 0x00 (0002ms, 0404ms total)
T2BC0 005:889 JLINK_ReadMem (0x40010C18, 0x0004 Bytes, ...) -- CPU_ReadMem(4 bytes @ 0x40010C18) - Data: 00 00 00 00  returns 0x00 (0001ms, 0405ms total)
T2BC0 008:802 JLINK_ReadMem (0x0800246E, 0x0002 Bytes, ...) -- CPU_ReadMem(64 bytes @ 0x08002440) -- Updating C cache (64 bytes @ 0x08002440) -- Read from C cache (2 bytes @ 0x0800246E) - Data: FF F7  returns 0x00 (0002ms, 0407ms total)
T2BC0 008:804 JLINK_ReadMem (0x08002470, 0x003C Bytes, ...) -- CPU_ReadMem(64 bytes @ 0x08002480) -- Updating C cache (64 bytes @ 0x08002480) -- Read from C cache (60 bytes @ 0x08002470) - Data: 49 F8 2C 48 00 21 00 90 08 23 80 22 08 46 FF F7 ...  returns 0x00 (0001ms, 0408ms total)
T177C 010:120 JLINK_SetBPEx(Addr = 0x08002472, Type = 0xFFFFFFF2)  returns 0x00000003 (0000ms, 0408ms total)
T177C 010:120 JLINK_Go() -- CPU_WriteMem(4 bytes @ 0xE0002000) -- CPU_ReadMem(4 bytes @ 0xE0001000) -- CPU_WriteMem(4 bytes @ 0xE0002008) -- CPU_WriteMem(4 bytes @ 0xE000200C) (0005ms, 0413ms total)
T177C 010:226 JLINK_IsHalted()  returns FALSE (0001ms, 0414ms total)
T177C 010:328 JLINK_IsHalted()  returns FALSE (0001ms, 0414ms total)
T177C 010:430 JLINK_IsHalted()  returns FALSE (0000ms, 0413ms total)
T177C 010:532 JLINK_IsHalted()  returns TRUE (0003ms, 0416ms total)
T177C 010:535 JLINK_Halt()  returns 0x00 (0000ms, 0413ms total)
T177C 010:535 JLINK_IsHalted()  returns TRUE (0001ms, 0414ms total)
T177C 010:536 JLINK_IsHalted()  returns TRUE (0000ms, 0413ms total)
T177C 010:536 JLINK_IsHalted()  returns TRUE (0000ms, 0413ms total)
T177C 010:536 JLINK_ReadReg(R15 (PC))  returns 0x08002472 (0000ms, 0413ms total)
T177C 010:536 JLINK_ReadReg(XPSR)  returns 0x21000000 (0000ms, 0413ms total)
T177C 010:536 JLINK_ClrBPEx(BPHandle = 0x00000003)  returns 0x00 (0000ms, 0413ms total)
T177C 010:536 JLINK_ReadMemU32(0xE000ED30, 0x0001 Items, ...) -- CPU_ReadMem(4 bytes @ 0xE000ED30) - Data: 03 00 00 00  returns 0x01 (0000ms, 0413ms total)
T177C 010:536 JLINK_ReadMemU32(0xE0001028, 0x0001 Items, ...) -- CPU_ReadMem(4 bytes @ 0xE0001028) - Data: 00 00 00 00  returns 0x01 (0002ms, 0415ms total)
T177C 010:538 JLINK_ReadMemU32(0xE0001038, 0x0001 Items, ...) -- CPU_ReadMem(4 bytes @ 0xE0001038) - Data: 00 02 00 00  returns 0x01 (0001ms, 0416ms total)
T177C 010:539 JLINK_ReadMemU32(0xE0001048, 0x0001 Items, ...) -- CPU_ReadMem(4 bytes @ 0xE0001048) - Data: 00 00 00 00  returns 0x01 (0001ms, 0417ms total)
T177C 010:540 JLINK_ReadMemU32(0xE0001058, 0x0001 Items, ...) -- CPU_ReadMem(4 bytes @ 0xE0001058) - Data: 00 00 00 00  returns 0x01 (0001ms, 0418ms total)
T177C 010:541 JLINK_ReadReg(R0)  returns 0x40010800 (0000ms, 0418ms total)
T177C 010:541 JLINK_ReadReg(R1)  returns 0x00000010 (0000ms, 0418ms total)
T177C 010:541 JLINK_ReadReg(R2)  returns 0x00000001 (0001ms, 0419ms total)
T177C 010:542 JLINK_ReadReg(R3)  returns 0x0000160C (0000ms, 0419ms total)
T177C 010:542 JLINK_ReadReg(R4)  returns 0x00000000 (0000ms, 0419ms total)
T177C 010:542 JLINK_ReadReg(R5)  returns 0x08002D98 (0000ms, 0419ms total)
T177C 010:542 JLINK_ReadReg(R6)  returns 0x00000000 (0000ms, 0419ms total)
T177C 010:542 JLINK_ReadReg(R7)  returns 0x00000000 (0000ms, 0419ms total)
T177C 010:542 JLINK_ReadReg(R8)  returns 0x00000000 (0000ms, 0419ms total)
T177C 010:542 JLINK_ReadReg(R9)  returns 0x20000160 (0000ms, 0419ms total)
T177C 010:542 JLINK_ReadReg(R10)  returns 0x00000000 (0000ms, 0419ms total)
T177C 010:542 JLINK_ReadReg(R11)  returns 0x00000000 (0000ms, 0419ms total)
T177C 010:542 JLINK_ReadReg(R12)  returns 0x888444B4 (0000ms, 0419ms total)
T177C 010:542 JLINK_ReadReg(R13 (SP))  returns 0x20000848 (0000ms, 0419ms total)
T177C 010:542 JLINK_ReadReg(R14)  returns 0x08002473 (0000ms, 0419ms total)
T177C 010:542 JLINK_ReadReg(R15 (PC))  returns 0x08002472 (0000ms, 0419ms total)
T177C 010:542 JLINK_ReadReg(XPSR)  returns 0x21000000 (0000ms, 0419ms total)
T177C 010:542 JLINK_ReadReg(MSP)  returns 0x20000848 (0000ms, 0419ms total)
T177C 010:542 JLINK_ReadReg(PSP)  returns 0x20001000 (0000ms, 0419ms total)
T177C 010:542 JLINK_ReadReg(CFBP)  returns 0x00000000 (0000ms, 0419ms total)
T2BC0 010:543 JLINK_ReadMem (0x20000854, 0x0004 Bytes, ...) -- CPU_ReadMem(64 bytes @ 0x20000840) -- Updating C cache (64 bytes @ 0x20000840) -- Read from C cache (4 bytes @ 0x20000854) - Data: 09 07 00 08  returns 0x00 (0001ms, 0420ms total)
T2BC0 010:544 JLINK_ReadMem (0x00000000, 0x0001 Bytes, ...) -- CPU_ReadMem(4 bytes @ 0x00000004) -- CPU_ReadMem(64 bytes @ 0x08000000) -- Updating C cache (64 bytes @ 0x08000000) -- Read from C cache (1 bytes @ 0x08000000) - Data: 58  returns 0x00 (0003ms, 0423ms total)
T2BC0 010:547 JLINK_ReadMem (0x00000000, 0x0004 Bytes, ...) -- Read from C cache (4 bytes @ 0x08000000) - Data: 58 08 00 20  returns 0x00 (0000ms, 0423ms total)
T2BC0 010:547 JLINK_ReadMem (0x2000084C, 0x0004 Bytes, ...) -- Read from C cache (4 bytes @ 0x2000084C) - Data: 30 2E 30 30  returns 0x00 (0000ms, 0423ms total)
T2BC0 010:547 JLINK_ReadMemU32(0xE0001004, 0x0001 Items, ...) -- CPU_ReadMem(4 bytes @ 0xE0001004) - Data: FF 38 57 01  returns 0x01 (0002ms, 0425ms total)
T2BC0 010:550 JLINK_ReadMem (0x40010C00, 0x000C Bytes, ...) -- CPU_ReadMem(12 bytes @ 0x40010C00) - Data: 33 33 33 44 44 44 44 44 FF FF 00 00  returns 0x00 (0001ms, 0426ms total)
T2BC0 010:551 JLINK_ReadMem (0x40010C0C, 0x0004 Bytes, ...) -- CPU_ReadMem(4 bytes @ 0x40010C0C) - Data: 3F 00 00 00  returns 0x00 (0001ms, 0427ms total)
T2BC0 010:552 JLINK_ReadMem (0x40010C18, 0x0004 Bytes, ...) -- CPU_ReadMem(4 bytes @ 0x40010C18) - Data: 00 00 00 00  returns 0x00 (0002ms, 0429ms total)
T2BC0 010:585 JLINK_ReadMem (0x0800246E, 0x0002 Bytes, ...) -- CPU_ReadMem(64 bytes @ 0x08002440) -- Updating C cache (64 bytes @ 0x08002440) -- Read from C cache (2 bytes @ 0x0800246E) - Data: FF F7  returns 0x00 (0001ms, 0430ms total)
T2BC0 010:586 JLINK_ReadMem (0x08002470, 0x003C Bytes, ...) -- CPU_ReadMem(64 bytes @ 0x08002480) -- Updating C cache (64 bytes @ 0x08002480) -- Read from C cache (60 bytes @ 0x08002470) - Data: 49 F8 2C 48 00 21 00 90 08 23 80 22 08 46 FF F7 ...  returns 0x00 (0002ms, 0432ms total)
T177C 016:457 JLINK_Step() -- Read from C cache (2 bytes @ 0x08002472) -- CPU_ReadMem(4 bytes @ 0xE000ED18) -- CPU_WriteMem(4 bytes @ 0xE000ED18) -- CPU_ReadMem(4 bytes @ 0xE000ED18) -- CPU_WriteMem(4 bytes @ 0xE000ED18) -- CPU_ReadMem(64 bytes @ 0x08002500) -- Updating C cache (64 bytes @ 0x08002500) -- Read from C cache (4 bytes @ 0x08002524) -- Simulated  returns 0x00 (0006ms, 0438ms total)
T177C 016:463 JLINK_ReadReg(R15 (PC))  returns 0x08002474 (0000ms, 0438ms total)
T177C 016:463 JLINK_ReadReg(XPSR)  returns 0x21000000 (0000ms, 0438ms total)
T177C 016:463 JLINK_SetBPEx(Addr = 0x08002472, Type = 0xFFFFFFF2)  returns 0x00000004 (0000ms, 0438ms total)
T177C 016:463 JLINK_SetBPEx(Addr = 0x0800248E, Type = 0xFFFFFFF2)  returns 0x00000005 (0000ms, 0438ms total)
T177C 016:463 JLINK_Go() -- CPU_WriteMem(4 bytes @ 0xE0002000) -- CPU_WriteMem(4 bytes @ 0xE0002000) -- CPU_ReadMem(4 bytes @ 0xE0001000) -- CPU_WriteMem(4 bytes @ 0xE000200C) -- CPU_WriteMem(4 bytes @ 0xE0001004) (0006ms, 0444ms total)
T177C 016:570 JLINK_IsHalted()  returns FALSE (0000ms, 0444ms total)
T177C 016:670 JLINK_IsHalted()  returns FALSE (0000ms, 0444ms total)
T177C 016:771 JLINK_IsHalted()  returns FALSE (0001ms, 0445ms total)
T177C 016:873 JLINK_IsHalted()  returns FALSE (0000ms, 0444ms total)
T177C 016:975 JLINK_IsHalted()  returns FALSE (0001ms, 0445ms total)
T177C 017:077 JLINK_ReadMemU32(0xE0001004, 0x0001 Items, ...) -- CPU is running -- CPU_ReadMem(4 bytes @ 0xE0001004) - Data: DE B4 F4 03  returns 0x01 (0000ms, 0444ms total)
T2BC0 017:081 JLINK_ReadMem (0x40010C00, 0x000C Bytes, ...) -- CPU is running -- CPU_ReadMem(12 bytes @ 0x40010C00) - Data: 33 33 33 44 44 44 44 44 FF FF 00 00  returns 0x00 (0001ms, 0445ms total)
T2BC0 017:082 JLINK_ReadMem (0x40010C0C, 0x0004 Bytes, ...) -- CPU is running -- CPU_ReadMem(4 bytes @ 0x40010C0C) - Data: 3F 00 00 00  returns 0x00 (0001ms, 0446ms total)
T2BC0 017:083 JLINK_ReadMem (0x40010C18, 0x0004 Bytes, ...) -- CPU is running -- CPU_ReadMem(4 bytes @ 0x40010C18) - Data: 00 00 00 00  returns 0x00 (0002ms, 0448ms total)
T177C 017:086 JLINK_IsHalted()  returns FALSE (0001ms, 0449ms total)
T177C 017:188 JLINK_IsHalted()  returns FALSE (0001ms, 0449ms total)
T177C 017:290 JLINK_IsHalted()  returns FALSE (0001ms, 0449ms total)
T177C 017:392 JLINK_IsHalted()  returns FALSE (0000ms, 0448ms total)
T177C 017:494 JLINK_IsHalted()  returns TRUE (0003ms, 0451ms total)
T177C 017:498 JLINK_Halt()  returns 0x00 (0000ms, 0448ms total)
T177C 017:498 JLINK_IsHalted()  returns TRUE (0000ms, 0448ms total)
T177C 017:498 JLINK_IsHalted()  returns TRUE (0000ms, 0448ms total)
T177C 017:498 JLINK_IsHalted()  returns TRUE (0000ms, 0448ms total)
T177C 017:498 JLINK_ReadReg(R15 (PC))  returns 0x0800248E (0000ms, 0448ms total)
T177C 017:498 JLINK_ReadReg(XPSR)  returns 0x61000000 (0000ms, 0448ms total)
T177C 017:498 JLINK_ClrBPEx(BPHandle = 0x00000004)  returns 0x00 (0000ms, 0448ms total)
T177C 017:498 JLINK_ClrBPEx(BPHandle = 0x00000005)  returns 0x00 (0000ms, 0448ms total)
T177C 017:498 JLINK_ReadMemU32(0xE000ED30, 0x0001 Items, ...) -- CPU_ReadMem(4 bytes @ 0xE000ED30) - Data: 03 00 00 00  returns 0x01 (0001ms, 0449ms total)
T177C 017:499 JLINK_ReadMemU32(0xE0001028, 0x0001 Items, ...) -- CPU_ReadMem(4 bytes @ 0xE0001028) - Data: 00 00 00 00  returns 0x01 (0001ms, 0450ms total)
T177C 017:500 JLINK_ReadMemU32(0xE0001038, 0x0001 Items, ...) -- CPU_ReadMem(4 bytes @ 0xE0001038) - Data: 00 02 00 00  returns 0x01 (0001ms, 0451ms total)
T177C 017:501 JLINK_ReadMemU32(0xE0001048, 0x0001 Items, ...) -- CPU_ReadMem(4 bytes @ 0xE0001048) - Data: 00 00 00 00  returns 0x01 (0002ms, 0453ms total)
T177C 017:503 JLINK_ReadMemU32(0xE0001058, 0x0001 Items, ...) -- CPU_ReadMem(4 bytes @ 0xE0001058) - Data: 00 00 00 00  returns 0x01 (0001ms, 0454ms total)
T177C 017:504 JLINK_ReadReg(R0)  returns 0x40010800 (0000ms, 0454ms total)
T177C 017:504 JLINK_ReadReg(R1)  returns 0x00000010 (0000ms, 0454ms total)
T177C 017:504 JLINK_ReadReg(R2)  returns 0x00000001 (0000ms, 0454ms total)
T177C 017:504 JLINK_ReadReg(R3)  returns 0x00000008 (0000ms, 0454ms total)
T177C 017:504 JLINK_ReadReg(R4)  returns 0x00000000 (0000ms, 0454ms total)
T177C 017:504 JLINK_ReadReg(R5)  returns 0x08002D98 (0000ms, 0454ms total)
T177C 017:504 JLINK_ReadReg(R6)  returns 0x00000000 (0000ms, 0454ms total)
T177C 017:504 JLINK_ReadReg(R7)  returns 0x00000000 (0000ms, 0454ms total)
T177C 017:504 JLINK_ReadReg(R8)  returns 0x00000000 (0000ms, 0454ms total)
T177C 017:504 JLINK_ReadReg(R9)  returns 0x20000160 (0000ms, 0454ms total)
T177C 017:504 JLINK_ReadReg(R10)  returns 0x00000000 (0000ms, 0454ms total)
T177C 017:504 JLINK_ReadReg(R11)  returns 0x00000000 (0000ms, 0454ms total)
T177C 017:504 JLINK_ReadReg(R12)  returns 0x888444B4 (0000ms, 0454ms total)
T177C 017:504 JLINK_ReadReg(R13 (SP))  returns 0x20000848 (0000ms, 0454ms total)
T177C 017:504 JLINK_ReadReg(R14)  returns 0x080014B3 (0000ms, 0454ms total)
T177C 017:504 JLINK_ReadReg(R15 (PC))  returns 0x0800248E (0000ms, 0454ms total)
T177C 017:504 JLINK_ReadReg(XPSR)  returns 0x61000000 (0000ms, 0454ms total)
T177C 017:504 JLINK_ReadReg(MSP)  returns 0x20000848 (0000ms, 0454ms total)
T177C 017:504 JLINK_ReadReg(PSP)  returns 0x20001000 (0000ms, 0454ms total)
T177C 017:504 JLINK_ReadReg(CFBP)  returns 0x00000000 (0000ms, 0454ms total)
T2BC0 017:505 JLINK_ReadMem (0x20000854, 0x0004 Bytes, ...) -- CPU_ReadMem(64 bytes @ 0x20000840) -- Updating C cache (64 bytes @ 0x20000840) -- Read from C cache (4 bytes @ 0x20000854) - Data: 09 07 00 08  returns 0x00 (0002ms, 0456ms total)
T2BC0 017:507 JLINK_ReadMem (0x00000000, 0x0001 Bytes, ...) -- CPU_ReadMem(4 bytes @ 0x00000004) -- CPU_ReadMem(64 bytes @ 0x08000000) -- Updating C cache (64 bytes @ 0x08000000) -- Read from C cache (1 bytes @ 0x08000000) - Data: 58  returns 0x00 (0002ms, 0458ms total)
T2BC0 017:510 JLINK_ReadMem (0x00000000, 0x0004 Bytes, ...) -- Read from C cache (4 bytes @ 0x08000000) - Data: 58 08 00 20  returns 0x00 (0000ms, 0458ms total)
T2BC0 017:510 JLINK_ReadMem (0x2000084C, 0x0004 Bytes, ...) -- Read from C cache (4 bytes @ 0x2000084C) - Data: 30 2E 30 30  returns 0x00 (0000ms, 0458ms total)
T2BC0 017:510 JLINK_ReadMemU32(0xE0001004, 0x0001 Items, ...) - Data: DE B4 F4 03  returns 0x01 (0000ms, 0458ms total)
T2BC0 017:513 JLINK_ReadMem (0x40010C00, 0x000C Bytes, ...) -- CPU_ReadMem(12 bytes @ 0x40010C00) - Data: 33 33 33 44 44 44 44 44 FF FF 00 00  returns 0x00 (0001ms, 0459ms total)
T2BC0 017:514 JLINK_ReadMem (0x40010C0C, 0x0004 Bytes, ...) -- CPU_ReadMem(4 bytes @ 0x40010C0C) - Data: 3F 00 00 00  returns 0x00 (0001ms, 0460ms total)
T2BC0 017:515 JLINK_ReadMem (0x40010C18, 0x0004 Bytes, ...) -- CPU_ReadMem(4 bytes @ 0x40010C18) - Data: 00 00 00 00  returns 0x00 (0002ms, 0462ms total)
T177C 021:378 JLINK_ReadMem (0x0800248E, 0x0002 Bytes, ...) -- CPU_ReadMem(64 bytes @ 0x08002480) -- Updating C cache (64 bytes @ 0x08002480) -- Read from C cache (2 bytes @ 0x0800248E) - Data: FF F7  returns 0x00 (0002ms, 0464ms total)
T177C 021:380 JLINK_ReadMem (0x08002490, 0x003C Bytes, ...) -- CPU_ReadMem(64 bytes @ 0x080024C0) -- Updating C cache (64 bytes @ 0x080024C0) -- Read from C cache (60 bytes @ 0x08002490) - Data: 5F FF 25 4F 4F F0 7C 58 01 20 FF F7 93 FF 01 28 ...  returns 0x00 (0002ms, 0466ms total)
T177C 021:382 JLINK_Step() -- Read from C cache (2 bytes @ 0x0800248E) -- Read from C cache (2 bytes @ 0x08002490) -- Simulated  returns 0x00 (0001ms, 0467ms total)
T177C 021:383 JLINK_ReadReg(R15 (PC))  returns 0x08002350 (0000ms, 0467ms total)
T177C 021:383 JLINK_ReadReg(XPSR)  returns 0x61000000 (0000ms, 0467ms total)
T177C 021:383 JLINK_SetBPEx(Addr = 0x08002492, Type = 0xFFFFFFF2)  returns 0x00000006 (0000ms, 0467ms total)
T177C 021:383 JLINK_SetBPEx(Addr = 0x08002472, Type = 0xFFFFFFF2)  returns 0x00000007 (0000ms, 0467ms total)
T177C 021:383 JLINK_SetBPEx(Addr = 0x0800248E, Type = 0xFFFFFFF2)  returns 0x00000008 (0000ms, 0467ms total)
T177C 021:383 JLINK_Go() -- CPU_WriteMem(4 bytes @ 0xE0002000) -- CPU_WriteMem(4 bytes @ 0xE0002000) -- CPU_WriteMem(4 bytes @ 0xE0002000) -- CPU_ReadMem(4 bytes @ 0xE0001000) -- CPU_WriteMem(4 bytes @ 0xE0002008) -- CPU_WriteMem(4 bytes @ 0xE000200C) -- CPU_WriteMem(4 bytes @ 0xE0002010) -- CPU_WriteMem(4 bytes @ 0xE0001004) (0008ms, 0475ms total)
T177C 021:492 JLINK_IsHalted()  returns TRUE (0003ms, 0478ms total)
T177C 021:495 JLINK_Halt()  returns 0x00 (0000ms, 0475ms total)
T177C 021:495 JLINK_IsHalted()  returns TRUE (0000ms, 0475ms total)
T177C 021:495 JLINK_IsHalted()  returns TRUE (0000ms, 0475ms total)
T177C 021:495 JLINK_IsHalted()  returns TRUE (0000ms, 0475ms total)
T177C 021:495 JLINK_ReadReg(R15 (PC))  returns 0x08002492 (0000ms, 0475ms total)
T177C 021:495 JLINK_ReadReg(XPSR)  returns 0x61000000 (0000ms, 0475ms total)
T177C 021:495 JLINK_ClrBPEx(BPHandle = 0x00000006)  returns 0x00 (0000ms, 0475ms total)
T177C 021:495 JLINK_ClrBPEx(BPHandle = 0x00000007)  returns 0x00 (0000ms, 0475ms total)
T177C 021:495 JLINK_ClrBPEx(BPHandle = 0x00000008)  returns 0x00 (0001ms, 0476ms total)
T177C 021:496 JLINK_ReadMemU32(0xE000ED30, 0x0001 Items, ...) -- CPU_ReadMem(4 bytes @ 0xE000ED30) - Data: 03 00 00 00  returns 0x01 (0001ms, 0477ms total)
T177C 021:497 JLINK_ReadMemU32(0xE0001028, 0x0001 Items, ...) -- CPU_ReadMem(4 bytes @ 0xE0001028) - Data: 00 00 00 00  returns 0x01 (0000ms, 0477ms total)
T177C 021:497 JLINK_ReadMemU32(0xE0001038, 0x0001 Items, ...) -- CPU_ReadMem(4 bytes @ 0xE0001038) - Data: 00 02 00 00  returns 0x01 (0002ms, 0479ms total)
T177C 021:499 JLINK_ReadMemU32(0xE0001048, 0x0001 Items, ...) -- CPU_ReadMem(4 bytes @ 0xE0001048) - Data: 00 00 00 00  returns 0x01 (0001ms, 0480ms total)
T177C 021:500 JLINK_ReadMemU32(0xE0001058, 0x0001 Items, ...) -- CPU_ReadMem(4 bytes @ 0xE0001058) - Data: 00 00 00 00  returns 0x01 (0001ms, 0481ms total)
T177C 021:501 JLINK_ReadReg(R0)  returns 0x40010800 (0000ms, 0481ms total)
T177C 021:501 JLINK_ReadReg(R1)  returns 0x00000010 (0000ms, 0481ms total)
T177C 021:501 JLINK_ReadReg(R2)  returns 0x00000000 (0000ms, 0481ms total)
T177C 021:501 JLINK_ReadReg(R3)  returns 0x00000010 (0000ms, 0481ms total)
T177C 021:501 JLINK_ReadReg(R4)  returns 0x00000000 (0000ms, 0481ms total)
T177C 021:501 JLINK_ReadReg(R5)  returns 0x08002D98 (0000ms, 0481ms total)
T177C 021:501 JLINK_ReadReg(R6)  returns 0x00000000 (0000ms, 0481ms total)
T177C 021:501 JLINK_ReadReg(R7)  returns 0x00000000 (0000ms, 0481ms total)
T177C 021:501 JLINK_ReadReg(R8)  returns 0x00000000 (0000ms, 0481ms total)
T177C 021:501 JLINK_ReadReg(R9)  returns 0x20000160 (0000ms, 0481ms total)
T177C 021:501 JLINK_ReadReg(R10)  returns 0x00000000 (0000ms, 0481ms total)
T177C 021:501 JLINK_ReadReg(R11)  returns 0x00000000 (0001ms, 0482ms total)
T177C 021:502 JLINK_ReadReg(R12)  returns 0x888444B4 (0000ms, 0482ms total)
T177C 021:502 JLINK_ReadReg(R13 (SP))  returns 0x20000848 (0000ms, 0482ms total)
T177C 021:502 JLINK_ReadReg(R14)  returns 0x080016C7 (0000ms, 0482ms total)
T177C 021:502 JLINK_ReadReg(R15 (PC))  returns 0x08002492 (0000ms, 0482ms total)
T177C 021:502 JLINK_ReadReg(XPSR)  returns 0x61000000 (0000ms, 0482ms total)
T177C 021:502 JLINK_ReadReg(MSP)  returns 0x20000848 (0000ms, 0482ms total)
T177C 021:502 JLINK_ReadReg(PSP)  returns 0x20001000 (0000ms, 0482ms total)
T177C 021:502 JLINK_ReadReg(CFBP)  returns 0x00000000 (0000ms, 0482ms total)
T2BC0 021:502 JLINK_ReadMem (0x20000854, 0x0004 Bytes, ...) -- CPU_ReadMem(64 bytes @ 0x20000840) -- Updating C cache (64 bytes @ 0x20000840) -- Read from C cache (4 bytes @ 0x20000854) - Data: 09 07 00 08  returns 0x00 (0002ms, 0484ms total)
T2BC0 021:504 JLINK_ReadMem (0x00000000, 0x0001 Bytes, ...) -- CPU_ReadMem(4 bytes @ 0x00000004) -- CPU_ReadMem(64 bytes @ 0x08000000) -- Updating C cache (64 bytes @ 0x08000000) -- Read from C cache (1 bytes @ 0x08000000) - Data: 58  returns 0x00 (0003ms, 0487ms total)
T2BC0 021:507 JLINK_ReadMem (0x00000000, 0x0004 Bytes, ...) -- Read from C cache (4 bytes @ 0x08000000) - Data: 58 08 00 20  returns 0x00 (0000ms, 0487ms total)
T2BC0 021:507 JLINK_ReadMem (0x2000084C, 0x0004 Bytes, ...) -- Read from C cache (4 bytes @ 0x2000084C) - Data: 30 2E 30 30  returns 0x00 (0000ms, 0487ms total)
T2BC0 021:507 JLINK_ReadMemU32(0xE0001004, 0x0001 Items, ...) -- CPU_ReadMem(4 bytes @ 0xE0001004) - Data: 84 7D FE 03  returns 0x01 (0001ms, 0488ms total)
T2BC0 021:509 JLINK_ReadMem (0x40010C00, 0x000C Bytes, ...) -- CPU_ReadMem(12 bytes @ 0x40010C00) - Data: 33 33 33 44 44 44 44 44 FF FF 00 00  returns 0x00 (0001ms, 0489ms total)
T2BC0 021:510 JLINK_ReadMem (0x40010C0C, 0x0004 Bytes, ...) -- CPU_ReadMem(4 bytes @ 0x40010C0C) - Data: 3F 00 00 00  returns 0x00 (0001ms, 0490ms total)
T2BC0 021:511 JLINK_ReadMem (0x40010C18, 0x0004 Bytes, ...) -- CPU_ReadMem(4 bytes @ 0x40010C18) - Data: 00 00 00 00  returns 0x00 (0001ms, 0491ms total)
T2BC0 021:516 JLINK_ReadMem (0x08002492, 0x0002 Bytes, ...) -- CPU_ReadMem(64 bytes @ 0x08002480) -- Updating C cache (64 bytes @ 0x08002480) -- Read from C cache (2 bytes @ 0x08002492) - Data: 25 4F  returns 0x00 (0002ms, 0493ms total)
T2BC0 021:518 JLINK_ReadMem (0x08002494, 0x003C Bytes, ...) -- CPU_ReadMem(64 bytes @ 0x080024C0) -- Updating C cache (64 bytes @ 0x080024C0) -- Read from C cache (60 bytes @ 0x08002494) - Data: 4F F0 7C 58 01 20 FF F7 93 FF 01 28 02 D0 02 28 ...  returns 0x00 (0002ms, 0495ms total)
T177C 022:539 JLINK_Step() -- Read from C cache (2 bytes @ 0x08002492) -- CPU_ReadMem(64 bytes @ 0x08002500) -- Updating C cache (64 bytes @ 0x08002500) -- Read from C cache (4 bytes @ 0x08002528) -- Simulated  returns 0x00 (0002ms, 0497ms total)
T177C 022:541 JLINK_ReadReg(R15 (PC))  returns 0x08002494 (0000ms, 0497ms total)
T177C 022:541 JLINK_ReadReg(XPSR)  returns 0x61000000 (0000ms, 0497ms total)
T177C 022:541 JLINK_ReadReg(R0)  returns 0x40010800 (0000ms, 0497ms total)
T177C 022:541 JLINK_ReadReg(R1)  returns 0x00000010 (0000ms, 0497ms total)
T177C 022:541 JLINK_ReadReg(R2)  returns 0x00000000 (0000ms, 0497ms total)
T177C 022:541 JLINK_ReadReg(R3)  returns 0x00000010 (0000ms, 0497ms total)
T177C 022:541 JLINK_ReadReg(R4)  returns 0x00000000 (0000ms, 0497ms total)
T177C 022:541 JLINK_ReadReg(R5)  returns 0x08002D98 (0000ms, 0497ms total)
T177C 022:541 JLINK_ReadReg(R6)  returns 0x00000000 (0000ms, 0497ms total)
T177C 022:541 JLINK_ReadReg(R7)  returns 0x41FC0000 (0000ms, 0497ms total)
T177C 022:541 JLINK_ReadReg(R8)  returns 0x00000000 (0000ms, 0497ms total)
T177C 022:541 JLINK_ReadReg(R9)  returns 0x20000160 (0000ms, 0497ms total)
T177C 022:541 JLINK_ReadReg(R10)  returns 0x00000000 (0000ms, 0497ms total)
T177C 022:541 JLINK_ReadReg(R11)  returns 0x00000000 (0000ms, 0497ms total)
T177C 022:541 JLINK_ReadReg(R12)  returns 0x888444B4 (0000ms, 0497ms total)
T177C 022:541 JLINK_ReadReg(R13 (SP))  returns 0x20000848 (0000ms, 0497ms total)
T177C 022:541 JLINK_ReadReg(R14)  returns 0x080016C7 (0001ms, 0498ms total)
T177C 022:542 JLINK_ReadReg(R15 (PC))  returns 0x08002494 (0000ms, 0498ms total)
T177C 022:542 JLINK_ReadReg(XPSR)  returns 0x61000000 (0000ms, 0498ms total)
T177C 022:542 JLINK_ReadReg(MSP)  returns 0x20000848 (0000ms, 0498ms total)
T177C 022:542 JLINK_ReadReg(PSP)  returns 0x20001000 (0000ms, 0498ms total)
T177C 022:542 JLINK_ReadReg(CFBP)  returns 0x00000000 (0000ms, 0498ms total)
T2BC0 022:545 JLINK_ReadMem (0x20000854, 0x0004 Bytes, ...) -- Read from C cache (4 bytes @ 0x20000854) - Data: 09 07 00 08  returns 0x00 (0000ms, 0498ms total)
T2BC0 022:545 JLINK_ReadMem (0x00000000, 0x0001 Bytes, ...) -- Read from C cache (1 bytes @ 0x08000000) - Data: 58  returns 0x00 (0000ms, 0498ms total)
T2BC0 022:545 JLINK_ReadMem (0x00000000, 0x0004 Bytes, ...) -- Read from C cache (4 bytes @ 0x08000000) - Data: 58 08 00 20  returns 0x00 (0000ms, 0498ms total)
T2BC0 022:545 JLINK_ReadMem (0x2000084C, 0x0004 Bytes, ...) -- Read from C cache (4 bytes @ 0x2000084C) - Data: 30 2E 30 30  returns 0x00 (0000ms, 0498ms total)
T2BC0 022:545 JLINK_ReadMemU32(0xE0001004, 0x0001 Items, ...) - Data: 86 7D FE 03  returns 0x01 (0000ms, 0498ms total)
T2BC0 022:548 JLINK_ReadMem (0x40010C00, 0x000C Bytes, ...) -- CPU_ReadMem(12 bytes @ 0x40010C00) - Data: 33 33 33 44 44 44 44 44 FF FF 00 00  returns 0x00 (0001ms, 0499ms total)
T2BC0 022:549 JLINK_ReadMem (0x40010C0C, 0x0004 Bytes, ...) -- CPU_ReadMem(4 bytes @ 0x40010C0C) - Data: 3F 00 00 00  returns 0x00 (0001ms, 0500ms total)
T2BC0 022:550 JLINK_ReadMem (0x40010C18, 0x0004 Bytes, ...) -- CPU_ReadMem(4 bytes @ 0x40010C18) - Data: 00 00 00 00  returns 0x00 (0001ms, 0501ms total)
T177C 022:807 JLINK_ReadMem (0x08002494, 0x003C Bytes, ...) -- Read from C cache (60 bytes @ 0x08002494) - Data: 4F F0 7C 58 01 20 FF F7 93 FF 01 28 02 D0 02 28 ...  returns 0x00 (0000ms, 0501ms total)
T177C 022:807 JLINK_Step() -- Read from C cache (2 bytes @ 0x08002494) -- Read from C cache (2 bytes @ 0x08002496) -- Simulated  returns 0x00 (0000ms, 0501ms total)
T177C 022:807 JLINK_ReadReg(R15 (PC))  returns 0x08002498 (0000ms, 0501ms total)
T177C 022:807 JLINK_ReadReg(XPSR)  returns 0x61000000 (0000ms, 0501ms total)
T177C 022:807 JLINK_ReadReg(R0)  returns 0x40010800 (0000ms, 0501ms total)
T177C 022:807 JLINK_ReadReg(R1)  returns 0x00000010 (0000ms, 0501ms total)
T177C 022:807 JLINK_ReadReg(R2)  returns 0x00000000 (0000ms, 0501ms total)
T177C 022:807 JLINK_ReadReg(R3)  returns 0x00000010 (0000ms, 0501ms total)
T177C 022:807 JLINK_ReadReg(R4)  returns 0x00000000 (0000ms, 0501ms total)
T177C 022:807 JLINK_ReadReg(R5)  returns 0x08002D98 (0000ms, 0501ms total)
T177C 022:807 JLINK_ReadReg(R6)  returns 0x00000000 (0000ms, 0501ms total)
T177C 022:807 JLINK_ReadReg(R7)  returns 0x41FC0000 (0000ms, 0501ms total)
T177C 022:807 JLINK_ReadReg(R8)  returns 0x3F000000 (0000ms, 0501ms total)
T177C 022:807 JLINK_ReadReg(R9)  returns 0x20000160 (0001ms, 0502ms total)
T177C 022:808 JLINK_ReadReg(R10)  returns 0x00000000 (0000ms, 0502ms total)
T177C 022:808 JLINK_ReadReg(R11)  returns 0x00000000 (0000ms, 0502ms total)
T177C 022:808 JLINK_ReadReg(R12)  returns 0x888444B4 (0000ms, 0502ms total)
T177C 022:808 JLINK_ReadReg(R13 (SP))  returns 0x20000848 (0000ms, 0502ms total)
T177C 022:808 JLINK_ReadReg(R14)  returns 0x080016C7 (0000ms, 0502ms total)
T177C 022:808 JLINK_ReadReg(R15 (PC))  returns 0x08002498 (0000ms, 0502ms total)
T177C 022:808 JLINK_ReadReg(XPSR)  returns 0x61000000 (0000ms, 0502ms total)
T177C 022:808 JLINK_ReadReg(MSP)  returns 0x20000848 (0000ms, 0502ms total)
T177C 022:808 JLINK_ReadReg(PSP)  returns 0x20001000 (0000ms, 0502ms total)
T177C 022:808 JLINK_ReadReg(CFBP)  returns 0x00000000 (0000ms, 0502ms total)
T2BC0 022:809 JLINK_ReadMem (0x20000854, 0x0004 Bytes, ...) -- Read from C cache (4 bytes @ 0x20000854) - Data: 09 07 00 08  returns 0x00 (0000ms, 0502ms total)
T2BC0 022:809 JLINK_ReadMem (0x00000000, 0x0001 Bytes, ...) -- Read from C cache (1 bytes @ 0x08000000) - Data: 58  returns 0x00 (0000ms, 0502ms total)
T2BC0 022:809 JLINK_ReadMem (0x2000084C, 0x0004 Bytes, ...) -- Read from C cache (4 bytes @ 0x2000084C) - Data: 30 2E 30 30  returns 0x00 (0000ms, 0502ms total)
T2BC0 022:809 JLINK_ReadMemU32(0xE0001004, 0x0001 Items, ...) - Data: 87 7D FE 03  returns 0x01 (0000ms, 0502ms total)
T2BC0 022:811 JLINK_ReadMem (0x40010C00, 0x000C Bytes, ...) -- CPU_ReadMem(12 bytes @ 0x40010C00) - Data: 33 33 33 44 44 44 44 44 FF FF 00 00  returns 0x00 (0001ms, 0503ms total)
T2BC0 022:812 JLINK_ReadMem (0x40010C0C, 0x0004 Bytes, ...) -- CPU_ReadMem(4 bytes @ 0x40010C0C) - Data: 3F 00 00 00  returns 0x00 (0001ms, 0504ms total)
T2BC0 022:813 JLINK_ReadMem (0x40010C18, 0x0004 Bytes, ...) -- CPU_ReadMem(4 bytes @ 0x40010C18) - Data: 00 00 00 00  returns 0x00 (0001ms, 0505ms total)
T2BC0 022:817 JLINK_ReadMem (0x08002498, 0x003C Bytes, ...) -- Read from C cache (60 bytes @ 0x08002498) - Data: 01 20 FF F7 93 FF 01 28 02 D0 02 28 09 D0 14 E0 ...  returns 0x00 (0000ms, 0505ms total)
T177C 023:042 JLINK_Step() -- Read from C cache (2 bytes @ 0x08002498) -- Simulated  returns 0x00 (0001ms, 0506ms total)
T177C 023:043 JLINK_ReadReg(R15 (PC))  returns 0x0800249A (0000ms, 0506ms total)
T177C 023:043 JLINK_ReadReg(XPSR)  returns 0x21000000 (0000ms, 0506ms total)
T177C 023:043 JLINK_SetBPEx(Addr = 0x0800249E, Type = 0xFFFFFFF2)  returns 0x00000009 (0000ms, 0506ms total)
T177C 023:043 JLINK_SetBPEx(Addr = 0x08002472, Type = 0xFFFFFFF2)  returns 0x0000000A (0000ms, 0506ms total)
T177C 023:043 JLINK_SetBPEx(Addr = 0x0800248E, Type = 0xFFFFFFF2)  returns 0x0000000B (0000ms, 0506ms total)
T177C 023:043 JLINK_Go() -- CPU_WriteMem(4 bytes @ 0xE0002000) -- CPU_WriteMem(4 bytes @ 0xE0002000) -- CPU_WriteMem(4 bytes @ 0xE0002000) -- CPU_ReadMem(4 bytes @ 0xE0001000) -- CPU_WriteMem(4 bytes @ 0xE0002008) -- CPU_WriteMem(4 bytes @ 0xE0001004) (0009ms, 0515ms total)
T177C 023:152 JLINK_IsHalted()  returns TRUE (0003ms, 0518ms total)
T177C 023:155 JLINK_Halt()  returns 0x00 (0000ms, 0515ms total)
T177C 023:155 JLINK_IsHalted()  returns TRUE (0000ms, 0515ms total)
T177C 023:155 JLINK_IsHalted()  returns TRUE (0000ms, 0515ms total)
T177C 023:155 JLINK_IsHalted()  returns TRUE (0000ms, 0515ms total)
T177C 023:155 JLINK_ReadReg(R15 (PC))  returns 0x0800249E (0000ms, 0515ms total)
T177C 023:155 JLINK_ReadReg(XPSR)  returns 0x61000000 (0000ms, 0515ms total)
T177C 023:156 JLINK_ClrBPEx(BPHandle = 0x00000009)  returns 0x00 (0000ms, 0515ms total)
T177C 023:156 JLINK_ClrBPEx(BPHandle = 0x0000000A)  returns 0x00 (0000ms, 0515ms total)
T177C 023:156 JLINK_ClrBPEx(BPHandle = 0x0000000B)  returns 0x00 (0000ms, 0515ms total)
T177C 023:156 JLINK_ReadMemU32(0xE000ED30, 0x0001 Items, ...) -- CPU_ReadMem(4 bytes @ 0xE000ED30) - Data: 03 00 00 00  returns 0x01 (0001ms, 0516ms total)
T177C 023:157 JLINK_ReadMemU32(0xE0001028, 0x0001 Items, ...) -- CPU_ReadMem(4 bytes @ 0xE0001028) - Data: 00 00 00 00  returns 0x01 (0001ms, 0517ms total)
T177C 023:158 JLINK_ReadMemU32(0xE0001038, 0x0001 Items, ...) -- CPU_ReadMem(4 bytes @ 0xE0001038) - Data: 00 02 00 00  returns 0x01 (0001ms, 0518ms total)
T177C 023:159 JLINK_ReadMemU32(0xE0001048, 0x0001 Items, ...) -- CPU_ReadMem(4 bytes @ 0xE0001048) - Data: 00 00 00 00  returns 0x01 (0001ms, 0519ms total)
T177C 023:160 JLINK_ReadMemU32(0xE0001058, 0x0001 Items, ...) -- CPU_ReadMem(4 bytes @ 0xE0001058) - Data: 00 00 00 00  returns 0x01 (0002ms, 0521ms total)
T177C 023:162 JLINK_ReadReg(R0)  returns 0x00000000 (0000ms, 0521ms total)
T177C 023:162 JLINK_ReadReg(R1)  returns 0x00000080 (0000ms, 0521ms total)
T177C 023:162 JLINK_ReadReg(R2)  returns 0x00000000 (0000ms, 0521ms total)
T177C 023:162 JLINK_ReadReg(R3)  returns 0x00000010 (0000ms, 0521ms total)
T177C 023:162 JLINK_ReadReg(R4)  returns 0x00000000 (0000ms, 0521ms total)
T177C 023:162 JLINK_ReadReg(R5)  returns 0x08002D98 (0000ms, 0521ms total)
T177C 023:162 JLINK_ReadReg(R6)  returns 0x00000000 (0000ms, 0521ms total)
T177C 023:162 JLINK_ReadReg(R7)  returns 0x41FC0000 (0000ms, 0521ms total)
T177C 023:162 JLINK_ReadReg(R8)  returns 0x3F000000 (0000ms, 0521ms total)
T177C 023:162 JLINK_ReadReg(R9)  returns 0x20000160 (0000ms, 0521ms total)
T177C 023:162 JLINK_ReadReg(R10)  returns 0x00000000 (0000ms, 0521ms total)
T177C 023:162 JLINK_ReadReg(R11)  returns 0x00000000 (0000ms, 0521ms total)
T177C 023:162 JLINK_ReadReg(R12)  returns 0x888444B4 (0000ms, 0521ms total)
T177C 023:162 JLINK_ReadReg(R13 (SP))  returns 0x20000848 (0000ms, 0521ms total)
T177C 023:162 JLINK_ReadReg(R14)  returns 0x08002441 (0000ms, 0521ms total)
T177C 023:162 JLINK_ReadReg(R15 (PC))  returns 0x0800249E (0000ms, 0521ms total)
T177C 023:162 JLINK_ReadReg(XPSR)  returns 0x61000000 (0000ms, 0521ms total)
T177C 023:162 JLINK_ReadReg(MSP)  returns 0x20000848 (0000ms, 0521ms total)
T177C 023:162 JLINK_ReadReg(PSP)  returns 0x20001000 (0000ms, 0521ms total)
T177C 023:162 JLINK_ReadReg(CFBP)  returns 0x00000000 (0000ms, 0521ms total)
T2BC0 023:163 JLINK_ReadMem (0x20000854, 0x0004 Bytes, ...) -- CPU_ReadMem(64 bytes @ 0x20000840) -- Updating C cache (64 bytes @ 0x20000840) -- Read from C cache (4 bytes @ 0x20000854) - Data: 09 07 00 08  returns 0x00 (0001ms, 0522ms total)
T2BC0 023:164 JLINK_ReadMem (0x2000084C, 0x0004 Bytes, ...) -- Read from C cache (4 bytes @ 0x2000084C) - Data: 30 2E 30 30  returns 0x00 (0000ms, 0522ms total)
T2BC0 023:164 JLINK_ReadMemU32(0xE0001004, 0x0001 Items, ...) -- CPU_ReadMem(4 bytes @ 0xE0001004) - Data: 0C 7E FE 03  returns 0x01 (0001ms, 0523ms total)
T2BC0 023:166 JLINK_ReadMem (0x40010C00, 0x000C Bytes, ...) -- CPU_ReadMem(12 bytes @ 0x40010C00) - Data: 33 33 33 44 44 44 44 44 FF FF 00 00  returns 0x00 (0001ms, 0524ms total)
T2BC0 023:167 JLINK_ReadMem (0x40010C0C, 0x0004 Bytes, ...) -- CPU_ReadMem(4 bytes @ 0x40010C0C) - Data: 3F 00 00 00  returns 0x00 (0001ms, 0525ms total)
T2BC0 023:168 JLINK_ReadMem (0x40010C18, 0x0004 Bytes, ...) -- CPU_ReadMem(4 bytes @ 0x40010C18) - Data: 00 00 00 00  returns 0x00 (0001ms, 0526ms total)
T177C 023:269 JLINK_ReadMem (0x0800249E, 0x0002 Bytes, ...) -- CPU_ReadMem(64 bytes @ 0x08002480) -- Updating C cache (64 bytes @ 0x08002480) -- Read from C cache (2 bytes @ 0x0800249E) - Data: 01 28  returns 0x00 (0001ms, 0527ms total)
T177C 023:270 JLINK_ReadMem (0x080024A0, 0x003C Bytes, ...) -- CPU_ReadMem(64 bytes @ 0x080024C0) -- Updating C cache (64 bytes @ 0x080024C0) -- Read from C cache (60 bytes @ 0x080024A0) - Data: 02 D0 02 28 09 D0 14 E0 BC 42 04 D0 41 46 20 46 ...  returns 0x00 (0002ms, 0529ms total)
T177C 023:272 JLINK_Step() -- Read from C cache (2 bytes @ 0x0800249E) -- Simulated  returns 0x00 (0000ms, 0529ms total)
T177C 023:272 JLINK_ReadReg(R15 (PC))  returns 0x080024A0 (0000ms, 0529ms total)
T177C 023:272 JLINK_ReadReg(XPSR)  returns 0x81000000 (0000ms, 0529ms total)
T177C 023:272 JLINK_Step() -- Read from C cache (2 bytes @ 0x080024A0) -- Simulated  returns 0x00 (0000ms, 0529ms total)
T177C 023:272 JLINK_ReadReg(R15 (PC))  returns 0x080024A2 (0000ms, 0529ms total)
T177C 023:272 JLINK_ReadReg(XPSR)  returns 0x81000000 (0000ms, 0529ms total)
T177C 023:272 JLINK_ReadReg(R0)  returns 0x00000000 (0000ms, 0529ms total)
T177C 023:272 JLINK_ReadReg(R1)  returns 0x00000080 (0000ms, 0529ms total)
T177C 023:272 JLINK_ReadReg(R2)  returns 0x00000000 (0000ms, 0529ms total)
T177C 023:272 JLINK_ReadReg(R3)  returns 0x00000010 (0000ms, 0529ms total)
T177C 023:273 JLINK_ReadReg(R4)  returns 0x00000000 (0000ms, 0530ms total)
T177C 023:273 JLINK_ReadReg(R5)  returns 0x08002D98 (0000ms, 0530ms total)
T177C 023:273 JLINK_ReadReg(R6)  returns 0x00000000 (0000ms, 0530ms total)
T177C 023:273 JLINK_ReadReg(R7)  returns 0x41FC0000 (0000ms, 0530ms total)
T177C 023:273 JLINK_ReadReg(R8)  returns 0x3F000000 (0000ms, 0530ms total)
T177C 023:273 JLINK_ReadReg(R9)  returns 0x20000160 (0000ms, 0530ms total)
T177C 023:273 JLINK_ReadReg(R10)  returns 0x00000000 (0000ms, 0530ms total)
T177C 023:273 JLINK_ReadReg(R11)  returns 0x00000000 (0000ms, 0530ms total)
T177C 023:273 JLINK_ReadReg(R12)  returns 0x888444B4 (0000ms, 0530ms total)
T177C 023:273 JLINK_ReadReg(R13 (SP))  returns 0x20000848 (0000ms, 0530ms total)
T177C 023:273 JLINK_ReadReg(R14)  returns 0x08002441 (0000ms, 0530ms total)
T177C 023:273 JLINK_ReadReg(R15 (PC))  returns 0x080024A2 (0000ms, 0530ms total)
T177C 023:273 JLINK_ReadReg(XPSR)  returns 0x81000000 (0000ms, 0530ms total)
T177C 023:273 JLINK_ReadReg(MSP)  returns 0x20000848 (0000ms, 0530ms total)
T177C 023:273 JLINK_ReadReg(PSP)  returns 0x20001000 (0000ms, 0530ms total)
T177C 023:273 JLINK_ReadReg(CFBP)  returns 0x00000000 (0000ms, 0530ms total)
T2BC0 023:274 JLINK_ReadMem (0x20000854, 0x0004 Bytes, ...) -- Read from C cache (4 bytes @ 0x20000854) - Data: 09 07 00 08  returns 0x00 (0000ms, 0530ms total)
T2BC0 023:274 JLINK_ReadMem (0x2000084C, 0x0004 Bytes, ...) -- Read from C cache (4 bytes @ 0x2000084C) - Data: 30 2E 30 30  returns 0x00 (0000ms, 0530ms total)
